Sub_L [mm];Sub_W [mm];Sub_H [mm];R_out [mm];Ring_W [mm];Gap_W [mm];S [mm];t [mm];MS_W [mm];Freq [GHz];S(1,1) (Real);S(1,1) (Imag)
0.04;0.025;0.0008;0.0035;0.0006;0.0002;0.0007;3.5000000000000004e-05;0.0014;1.0;0.16935535466347712;0.008522458472703824
0.04;0.025;0.0008;0.0035;0.0006;0.0002;0.0007;3.5000000000000004e-05;0.0014;1.01;0.17012829425147608;0.006089246924587443
0.04;0.025;0.0008;0.0035;0.0006;0.0002;0.0007;3.5000000000000004e-05;0.0014;1.02;0.17084771727285997;0.003633891945943089
0.04;0.025;0.0008;0.0035;0.0006;0.0002;0.0007;3.5000000000000004e-05;0.0014;1.03;0.171513261995753;0.001157890648952027
0.04;0.025;0.0008;0.0035;0.0006;0.0002;0.0007;3.5000000000000004e-05;0.0014;1.04;0.17212461034584992;-0.0013372581410650898
0.04;0.025;0.0008;0.0035;0.0006;0.0002;0.0007;3.5000000000000004e-05;0.0014;1.05;0.17268148781871653;-0.003850055175225414
0.04;0.025;0.0008;0.0035;0.0006;0.0002;0.0007;3.5000000000000004e-05;0.0014;1.06;0.17318366335340077;-0.006379002062886903
0.04;0.025;0.0008;0.0035;0.0006;0.0002;0.0007;3.5000000000000004e-05;0.0014;1.07;0.17363094916776328;-0.008922602544777804
0.04;0.025;0.0008;0.0035;0.0006;0.0002;0.0007;3.5000000000000004e-05;0.0014;1.08;0.17402320055594445;-0.011479363756554332
0.04;0.025;0.0008;0.0035;0.0006;0.0002;0.0007;3.5000000000000004e-05;0.0014;1.09;0.17436031564841428;-0.014047797481899042
0.04;0.025;0.0008;0.0035;0.0006;0.0002;0.0007;3.5000000000000004e-05;0.0014;1.1;0.17464223513505592;-0.016626421394275916
0.04;0.025;0.0008;0.0035;0.0006;0.0002;0.0007;3.5000000000000004e-05;0.0014;1.11;0.17486894195176567;-0.019213760286467287
0.04;0.025;0.0008;0.0035;0.0006;0.0002;0.0007;3.5000000000000004e-05;0.0014;1.12;0.17504046093105857;-0.021808347287028965
0.04;0.025;0.0008;0.0035;0.0006;0.0002;0.0007;3.5000000000000004e-05;0.0014;1.13;0.17515685841718884;-0.024408725062803064
0.04;0.025;0.0008;0.0035;0.0006;0.0002;0.0007;3.5000000000000004e-05;0.0014;1.14;0.17521824184631388;-0.02701344700664355
0.04;0.025;0.0008;0.0035;0.0006;0.0002;0.0007;3.5000000000000004e-05;0.0014;1.15;0.1752247592922387;-0.029621078409515333
0.04;0.025;0.0008;0.0035;0.0006;0.0002;0.0007;3.5000000000000004e-05;0.0014;1.16;0.17517659897830468;-0.03223019761614047
0.04;0.025;0.0008;0.0035;0.0006;0.0002;0.0007;3.5000000000000004e-05;0.0014;1.17;0.17507398875598817;-0.03483939716337639
0.04;0.025;0.0008;0.0035;0.0006;0.0002;0.0007;3.5000000000000004e-05;0.0014;1.18;0.17491719555080315;-0.03744728490051835
0.04;0.025;0.0008;0.0035;0.0006;0.0002;0.0007;3.5000000000000004e-05;0.0014;1.19;0.17470652477611062;-0.04005248509073719
0.04;0.025;0.0008;0.0035;0.0006;0.0002;0.0007;3.5000000000000004e-05;0.0014;1.2;0.17444231971544363;-0.04265363949286595
0.04;0.025;0.0008;0.0035;0.0006;0.0002;0.0007;3.5000000000000004e-05;0.0014;1.21;0.1741249608739958;-0.04524940842277308
0.04;0.025;0.0008;0.0035;0.0006;0.0002;0.0007;3.5000000000000004e-05;0.0014;1.22;0.1737548652999082;-0.04783847179356001
0.04;0.025;0.0008;0.0035;0.0006;0.0002;0.0007;3.5000000000000004e-05;0.0014;1.23;0.17333248587601785;-0.050419530133844356
0.04;0.025;0.0008;0.0035;0.0006;0.0002;0.0007;3.5000000000000004e-05;0.0014;1.24;0.17285831058274828;-0.052991305583397895
0.04;0.025;0.0008;0.0035;0.0006;0.0002;0.0007;3.5000000000000004e-05;0.0014;1.25;0.1723328617328295;-0.055552542865422896
0.04;0.025;0.0008;0.0035;0.0006;0.0002;0.0007;3.5000000000000004e-05;0.0014;1.26;0.17175669517854728;-0.05810201023476559
0.04;0.025;0.0008;0.0035;0.0006;0.0002;0.0007;3.5000000000000004e-05;0.0014;1.27;0.17113039949224748;-0.0606385004013808
0.04;0.025;0.0008;0.0035;0.0006;0.0002;0.0007;3.5000000000000004e-05;0.0014;1.28;0.1704545951208201;-0.06316083142837225
0.04;0.025;0.0008;0.0035;0.0006;0.0002;0.0007;3.5000000000000004e-05;0.0014;1.29;0.1697299335149126;-0.06566784760395349
0.04;0.025;0.0008;0.0035;0.0006;0.0002;0.0007;3.5000000000000004e-05;0.0014;1.3;0.16895709623363367;-0.06815842028668659
0.04;0.025;0.0008;0.0035;0.0006;0.0002;0.0007;3.5000000000000004e-05;0.0014;1.31;0.16813679402551354;-0.07063144872337207
0.04;0.025;0.0008;0.0035;0.0006;0.0002;0.0007;3.5000000000000004e-05;0.0014;1.32;0.16726976588651907;-0.07308586083898047
0.04;0.025;0.0008;0.0035;0.0006;0.0002;0.0007;3.5000000000000004e-05;0.0014;1.33;0.16635677809591545;-0.07552061399803191
0.04;0.025;0.0008;0.0035;0.0006;0.0002;0.0007;3.5000000000000004e-05;0.0014;1.34;0.1653986232307932;-0.07793469573684854
0.04;0.025;0.0008;0.0035;0.0006;0.0002;0.0007;3.5000000000000004e-05;0.0014;1.35;0.16439611916008895;-0.08032712446611925
0.04;0.025;0.0008;0.0035;0.0006;0.0002;0.0007;3.5000000000000004e-05;0.0014;1.36;0.16335010801893743;-0.08269695014323725
0.04;0.025;0.0008;0.0035;0.0006;0.0002;0.0007;3.5000000000000004e-05;0.0014;1.37;0.1622614551642202;-0.08504325491388826
0.04;0.025;0.0008;0.0035;0.0006;0.0002;0.0007;3.5000000000000004e-05;0.0014;1.38;0.1611310481121638;-0.0873651537223855
0.04;0.025;0.0008;0.0035;0.0006;0.0002;0.0007;3.5000000000000004e-05;0.0014;1.39;0.15995979545888486;-0.08966179489026718
0.04;0.025;0.0008;0.0035;0.0006;0.0002;0.0007;3.5000000000000004e-05;0.0014;1.4;0.15874862578476545;-0.09193236066269388
0.04;0.025;0.0008;0.0035;0.0006;0.0002;0.0007;3.5000000000000004e-05;0.0014;1.41;0.15749848654357157;-0.09417606772220195
0.04;0.025;0.0008;0.0035;0.0006;0.0002;0.0007;3.5000000000000004e-05;0.0014;1.42;0.15621034293723599;-0.09639216766939075
0.04;0.025;0.0008;0.0035;0.0006;0.0002;0.0007;3.5000000000000004e-05;0.0014;1.43;0.1548851767772297;-0.09857994747014143
0.04;0.025;0.0008;0.0035;0.0006;0.0002;0.0007;3.5000000000000004e-05;0.0014;1.44;0.15352398533347805;-0.10073872986899378
0.04;0.025;0.0008;0.0035;0.0006;0.0002;0.0007;3.5000000000000004e-05;0.0014;1.45;0.15212778017177045;-0.10286787376832017
0.04;0.025;0.0008;0.0035;0.0006;0.0002;0.0007;3.5000000000000004e-05;0.0014;1.46;0.1506975859806326;-0.10496677457296937
0.04;0.025;0.0008;0.0035;0.0006;0.0002;0.0007;3.5000000000000004e-05;0.0014;1.47;0.14923443938864286;-0.10703486450006898
0.04;0.025;0.0008;0.0035;0.0006;0.0002;0.0007;3.5000000000000004e-05;0.0014;1.48;0.1477393877731823;-0.10907161285370619
0.04;0.025;0.0008;0.0035;0.0006;0.0002;0.0007;3.5000000000000004e-05;0.0014;1.49;0.1462134880616122;-0.11107652626422801
0.04;0.025;0.0008;0.0035;0.0006;0.0002;0.0007;3.5000000000000004e-05;0.0014;1.5;0.14465780552590324;-0.11304914889192945
0.04;0.025;0.0008;0.0035;0.0006;0.0002;0.0007;3.5000000000000004e-05;0.0014;1.51;0.14307341257171816;-0.11498906259492526
0.04;0.025;0.0008;0.0035;0.0006;0.0002;0.0007;3.5000000000000004e-05;0.0014;1.52;0.1414613875229909;-0.11689588706102672
0.04;0.025;0.0008;0.0035;0.0006;0.0002;0.0007;3.5000000000000004e-05;0.0014;1.53;0.13982281340303024;-0.11876927990347501
0.04;0.025;0.0008;0.0035;0.0006;0.0002;0.0007;3.5000000000000004e-05;0.0014;1.54;0.13815877671319218;-0.12060893672040869
0.04;0.025;0.0008;0.0035;0.0006;0.0002;0.0007;3.5000000000000004e-05;0.0014;1.55;0.1364703662101766;-0.12241459111797422
0.04;0.025;0.0008;0.0035;0.0006;0.0002;0.0007;3.5000000000000004e-05;0.0014;1.56;0.13475867168299677;-0.12418601469701665
0.04;0.025;0.0008;0.0035;0.0006;0.0002;0.0007;3.5000000000000004e-05;0.0014;1.57;0.1330247827306935;-0.125923017003319
0.04;0.025;0.0008;0.0035;0.0006;0.0002;0.0007;3.5000000000000004e-05;0.0014;1.58;0.13126978754184992;-0.12762544544138812
0.04;0.025;0.0008;0.0035;0.0006;0.0002;0.0007;3.5000000000000004e-05;0.0014;1.59;0.12949477167698242;-0.1292931851518181
0.04;0.025;0.0008;0.0035;0.0006;0.0002;0.0007;3.5000000000000004e-05;0.0014;1.6;0.12770081685487833;-0.13092615885229508
0.04;0.025;0.0008;0.0035;0.0006;0.0002;0.0007;3.5000000000000004e-05;0.0014;1.61;0.12588899974395873;-0.13252432664233377
0.04;0.025;0.0008;0.0035;0.0006;0.0002;0.0007;3.5000000000000004e-05;0.0014;1.62;0.12406039075972859;-0.1340876857718783
0.04;0.025;0.0008;0.0035;0.0006;0.0002;0.0007;3.5000000000000004e-05;0.0014;1.63;0.12221605286940487;-0.13561627037392468
0.04;0.025;0.0008;0.0035;0.0006;0.0002;0.0007;3.5000000000000004e-05;0.0014;1.64;0.12035704040478062;-0.1371101511613601
0.04;0.025;0.0008;0.0035;0.0006;0.0002;0.0007;3.5000000000000004e-05;0.0014;1.65;0.11848439788440251;-0.13856943508824957
0.04;0.025;0.0008;0.0035;0.0006;0.0002;0.0007;3.5000000000000004e-05;0.0014;1.66;0.11659915884612858;-0.139994264975831
0.04;0.025;0.0008;0.0035;0.0006;0.0002;0.0007;3.5000000000000004e-05;0.0014;1.67;0.11470234469111681;-0.14138481910351425
0.04;0.025;0.0008;0.0035;0.0006;0.0002;0.0007;3.5000000000000004e-05;0.0014;1.68;0.1127949635403154;-0.14274131076522376
0.04;0.025;0.0008;0.0035;0.0006;0.0002;0.0007;3.5000000000000004e-05;0.0014;1.69;0.11087800910448385;-0.14406398779144267
0.04;0.025;0.0008;0.0035;0.0006;0.0002;0.0007;3.5000000000000004e-05;0.0014;1.7;0.10895245956879433;-0.14535313203736716
0.04;0.025;0.0008;0.0035;0.0006;0.0002;0.0007;3.5000000000000004e-05;0.0014;1.71;0.1070192764930372;-0.14660905883760897
0.04;0.025;0.0008;0.0035;0.0006;0.0002;0.0007;3.5000000000000004e-05;0.0014;1.72;0.1050794037284428;-0.14783211642791308
0.04;0.025;0.0008;0.0035;0.0006;0.0002;0.0007;3.5000000000000004e-05;0.0014;1.73;0.10313376635212819;-0.14902268533440594
0.04;0.025;0.0008;0.0035;0.0006;0.0002;0.0007;3.5000000000000004e-05;0.0014;1.74;0.1011832696201485;-0.1501811777309112
0.04;0.025;0.0008;0.0035;0.0006;0.0002;0.0007;3.5000000000000004e-05;0.0014;1.75;0.09922879794013235;-0.151308036764913
0.04;0.025;0.0008;0.0035;0.0006;0.0002;0.0007;3.5000000000000004e-05;0.0014;1.76;0.09727121386445096;-0.15240373585278075
0.04;0.025;0.0008;0.0035;0.0006;0.0002;0.0007;3.5000000000000004e-05;0.0014;1.77;0.09531135710485605;-0.15346877794489716
0.04;0.025;0.0008;0.0035;0.0006;0.0002;0.0007;3.5000000000000004e-05;0.0014;1.78;0.0933500435695002;-0.15450369476137396
0.04;0.025;0.0008;0.0035;0.0006;0.0002;0.0007;3.5000000000000004e-05;0.0014;1.79;0.09138806442323837;-0.15550904599906812
0.04;0.025;0.0008;0.0035;0.0006;0.0002;0.0007;3.5000000000000004e-05;0.0014;1.8;0.08942618517206834;-0.15648541851064193
0.04;0.025;0.0008;0.0035;0.0006;0.0002;0.0007;3.5000000000000004e-05;0.0014;1.81;0.08746514477256473;-0.1574334254564506
0.04;0.025;0.0008;0.0035;0.0006;0.0002;0.0007;3.5000000000000004e-05;0.0014;1.82;0.08550565476711858;-0.15835370543006205
0.04;0.025;0.0008;0.0035;0.0006;0.0002;0.0007;3.5000000000000004e-05;0.0014;1.83;0.08354839844576871;-0.15924692155825584
0.04;0.025;0.0008;0.0035;0.0006;0.0002;0.0007;3.5000000000000004e-05;0.0014;1.84;0.08159403003539055;-0.16011376057636537
0.04;0.025;0.0008;0.0035;0.0006;0.0002;0.0007;3.5000000000000004e-05;0.0014;1.85;0.07964317391696857;-0.16095493187987023
0.04;0.025;0.0008;0.0035;0.0006;0.0002;0.0007;3.5000000000000004e-05;0.0014;1.86;0.07769642387164512;-0.16177116655316087
0.04;0.025;0.0008;0.0035;0.0006;0.0002;0.0007;3.5000000000000004e-05;0.0014;1.87;0.07575434235621085;-0.162563216376435
0.04;0.025;0.0008;0.0035;0.0006;0.0002;0.0007;3.5000000000000004e-05;0.0014;1.88;0.07381745980866299;-0.1633318528117041
0.04;0.025;0.0008;0.0035;0.0006;0.0002;0.0007;3.5000000000000004e-05;0.0014;1.89;0.07188627398441681;-0.16407786596891596
0.04;0.025;0.0008;0.0035;0.0006;0.0002;0.0007;3.5000000000000004e-05;0.0014;1.9;0.0699612493237299;-0.16480206355322488
0.04;0.025;0.0008;0.0035;0.0006;0.0002;0.0007;3.5000000000000004e-05;0.0014;1.91;0.06804281635083852;-0.165505269794455
0.04;0.025;0.0008;0.0035;0.0006;0.0002;0.0007;3.5000000000000004e-05;0.0014;1.92;0.06613137110528995;-0.16618832435983463
0.04;0.025;0.0008;0.0035;0.0006;0.0002;0.0007;3.5000000000000004e-05;0.0014;1.93;0.06422727460588995;-0.16685208125108883
0.04;0.025;0.0008;0.0035;0.0006;0.0002;0.0007;3.5000000000000004e-05;0.0014;1.94;0.06233085234765309;-0.16749740768699825
0.04;0.025;0.0008;0.0035;0.0006;0.0002;0.0007;3.5000000000000004e-05;0.0014;1.95;0.06044239383209707;-0.16812518297254864
0.04;0.025;0.0008;0.0035;0.0006;0.0002;0.0007;3.5000000000000004e-05;0.0014;1.96;0.05856215213117887;-0.168736297355812
0.04;0.025;0.0008;0.0035;0.0006;0.0002;0.0007;3.5000000000000004e-05;0.0014;1.97;0.05669034348511127;-0.16933165087370397
0.04;0.025;0.0008;0.0035;0.0006;0.0002;0.0007;3.5000000000000004e-05;0.0014;1.98;0.054827146934267726;-0.16991215218778402
0.04;0.025;0.0008;0.0035;0.0006;0.0002;0.0007;3.5000000000000004e-05;0.0014;1.99;0.052972703985327774;-0.17047871741126475
0.04;0.025;0.0008;0.0035;0.0006;0.0002;0.0007;3.5000000000000004e-05;0.0014;2.0;0.05112711831175551;-0.17103226892840712
0.04;0.025;0.0008;0.0035;0.0006;0.0002;0.0007;3.5000000000000004e-05;0.0014;2.01;0.04929045548867082;-0.17157373420748123
0.04;0.025;0.0008;0.0035;0.0006;0.0002;0.0007;3.5000000000000004e-05;0.0014;2.02;0.04746274276210517;-0.172104044608476
0.04;0.025;0.0008;0.0035;0.0006;0.0002;0.0007;3.5000000000000004e-05;0.0014;2.03;0.04564396885259715;-0.172624134186742
0.04;0.025;0.0008;0.0035;0.0006;0.0002;0.0007;3.5000000000000004e-05;0.0014;2.04;0.04383408379301029;-0.1731349384937427
0.04;0.025;0.0008;0.0035;0.0006;0.0002;0.0007;3.5000000000000004e-05;0.0014;2.05;0.04203299880042844;-0.1736373933760989
0.04;0.025;0.0008;0.0035;0.0006;0.0002;0.0007;3.5000000000000004e-05;0.0014;2.06;0.04024058618189878;-0.1741324337740856
0.04;0.025;0.0008;0.0035;0.0006;0.0002;0.0007;3.5000000000000004e-05;0.0014;2.07;0.038456679273767225;-0.17462099252075103
0.04;0.025;0.0008;0.0035;0.0006;0.0002;0.0007;3.5000000000000004e-05;0.0014;2.08;0.03668107241427752;-0.17510399914279856
0.04;0.025;0.0008;0.0035;0.0006;0.0002;0.0007;3.5000000000000004e-05;0.0014;2.09;0.03491352094905961;-0.17558237866437132
0.04;0.025;0.0008;0.0035;0.0006;0.0002;0.0007;3.5000000000000004e-05;0.0014;2.1;0.03315374126906564;-0.17605705041485112
0.04;0.025;0.0008;0.0035;0.0006;0.0002;0.0007;3.5000000000000004e-05;0.0014;2.11;0.031401410880475863;-0.17652892684177446
0.04;0.025;0.0008;0.0035;0.0006;0.0002;0.0007;3.5000000000000004e-05;0.0014;2.12;0.02965616850602005;-0.176998912329936
0.04;0.025;0.0008;0.0035;0.0006;0.0002;0.0007;3.5000000000000004e-05;0.0014;2.13;0.027917614217121307;-0.17746790202773535
0.04;0.025;0.0008;0.0035;0.0006;0.0002;0.0007;3.5000000000000004e-05;0.0014;2.14;0.026185309596200582;-0.17793678068178306
0.04;0.025;0.0008;0.0035;0.0006;0.0002;0.0007;3.5000000000000004e-05;0.0014;2.15;0.024458777928434726;-0.17840642148076208
0.04;0.025;0.0008;0.0035;0.0006;0.0002;0.0007;3.5000000000000004e-05;0.0014;2.16;0.02273750442219761;-0.1788776849095007
0.04;0.025;0.0008;0.0035;0.0006;0.0002;0.0007;3.5000000000000004e-05;0.0014;2.17;0.021020936457370045;-0.1793514176141788
0.04;0.025;0.0008;0.0035;0.0006;0.0002;0.0007;3.5000000000000004e-05;0.0014;2.18;0.01930848386063403;-0.17982845127954708
0.04;0.025;0.0008;0.0035;0.0006;0.0002;0.0007;3.5000000000000004e-05;0.0014;2.19;0.01759951920682928;-0.18030960151900005
0.04;0.025;0.0008;0.0035;0.0006;0.0002;0.0007;3.5000000000000004e-05;0.0014;2.2;0.015893378145385172;-0.18079566677829373
0.04;0.025;0.0008;0.0035;0.0006;0.0002;0.0007;3.5000000000000004e-05;0.0014;2.21;0.014189359750798188;-0.18128742725365352
0.04;0.025;0.0008;0.0035;0.0006;0.0002;0.0007;3.5000000000000004e-05;0.0014;2.22;0.012486726896060564;-0.18178564382495638
0.04;0.025;0.0008;0.0035;0.0006;0.0002;0.0007;3.5000000000000004e-05;0.0014;2.23;0.010784706647911138;-0.18229105700463127
0.04;0.025;0.0008;0.0035;0.0006;0.0002;0.0007;3.5000000000000004e-05;0.0014;2.24;0.00908249068271532;-0.18280438590284642
0.04;0.025;0.0008;0.0035;0.0006;0.0002;0.0007;3.5000000000000004e-05;0.0014;2.25;0.007379235721742885;-0.1833263272094972
0.04;0.025;0.0008;0.0035;0.0006;0.0002;0.0007;3.5000000000000004e-05;0.0014;2.26;0.0056740639845585345;-0.18385755419344077
0.04;0.025;0.0008;0.0035;0.0006;0.0002;0.0007;3.5000000000000004e-05;0.0014;2.27;0.003966063659194833;-0.18439871571935207
0.04;0.025;0.0008;0.0035;0.0006;0.0002;0.0007;3.5000000000000004e-05;0.0014;2.28;0.0022542893877407037;-0.18495043528250388
0.04;0.025;0.0008;0.0035;0.0006;0.0002;0.0007;3.5000000000000004e-05;0.0014;2.29;0.0005377627659202463;-0.18551331006169314
0.04;0.025;0.0008;0.0035;0.0006;0.0002;0.0007;3.5000000000000004e-05;0.0014;2.3;-0.0011845271447874335;-0.18608790999045413
0.04;0.025;0.0008;0.0035;0.0006;0.0002;0.0007;3.5000000000000004e-05;0.0014;2.31;-0.002913623293987063;-0.1866747768466175
0.04;0.025;0.0008;0.0035;0.0006;0.0002;0.0007;3.5000000000000004e-05;0.0014;2.32;-0.004650600109701154;-0.18727442336017344
0.04;0.025;0.0008;0.0035;0.0006;0.0002;0.0007;3.5000000000000004e-05;0.0014;2.33;-0.006396562957760699;-0.1878873323393179
0.04;0.025;0.0008;0.0035;0.0006;0.0002;0.0007;3.5000000000000004e-05;0.0014;2.34;-0.008152647594860596;-0.18851395581444685
0.04;0.025;0.0008;0.0035;0.0006;0.0002;0.0007;3.5000000000000004e-05;0.0014;2.35;-0.009920019616910076;-0.189154714199768
0.04;0.025;0.0008;0.0035;0.0006;0.0002;0.0007;3.5000000000000004e-05;0.0014;2.36;-0.011699873904330832;-0.1898099954720906
0.04;0.025;0.0008;0.0035;0.0006;0.0002;0.0007;3.5000000000000004e-05;0.0014;2.37;-0.013493434065993775;-0.1904801543662367
0.04;0.025;0.0008;0.0035;0.0006;0.0002;0.0007;3.5000000000000004e-05;0.0014;2.38;-0.015301951883495304;-0.19116551158640302
0.04;0.025;0.0008;0.0035;0.0006;0.0002;0.0007;3.5000000000000004e-05;0.0014;2.39;-0.017126706757493955;-0.19186635303267338
0.04;0.025;0.0008;0.0035;0.0006;0.0002;0.0007;3.5000000000000004e-05;0.0014;2.4;-0.01896900515784525;-0.19258292904175947
0.04;0.025;0.0008;0.0035;0.0006;0.0002;0.0007;3.5000000000000004e-05;0.0014;2.41;-0.020830180079280447;-0.19331545364090752
0.04;0.025;0.0008;0.0035;0.0006;0.0002;0.0007;3.5000000000000004e-05;0.0014;2.42;-0.022711590504381082;-0.19406410381376335
0.04;0.025;0.0008;0.0035;0.0006;0.0002;0.0007;3.5000000000000004e-05;0.0014;2.43;-0.02461462087560226;-0.19482901877685524
0.04;0.025;0.0008;0.0035;0.0006;0.0002;0.0007;3.5000000000000004e-05;0.0014;2.44;-0.026540680578093476;-0.19561029926518536
0.04;0.025;0.0008;0.0035;0.0006;0.0002;0.0007;3.5000000000000004e-05;0.0014;2.45;-0.02849120343506001;-0.19640800682526527
0.04;0.025;0.0008;0.0035;0.0006;0.0002;0.0007;3.5000000000000004e-05;0.0014;2.46;-0.03046764721738343;-0.1972221631137715
0.04;0.025;0.0008;0.0035;0.0006;0.0002;0.0007;3.5000000000000004e-05;0.0014;2.47;-0.03247149316921097;-0.19805274919980967
0.04;0.025;0.0008;0.0035;0.0006;0.0002;0.0007;3.5000000000000004e-05;0.0014;2.48;-0.03450424555118586;-0.1988997048686024
0.04;0.025;0.0008;0.0035;0.0006;0.0002;0.0007;3.5000000000000004e-05;0.0014;2.49;-0.03656743120295556;-0.19976292792422834
0.04;0.025;0.0008;0.0035;0.0006;0.0002;0.0007;3.5000000000000004e-05;0.0014;2.5;-0.03866259912655999;-0.2006422734888303
0.04;0.025;0.0008;0.0035;0.0006;0.0002;0.0007;3.5000000000000004e-05;0.0014;2.51;-0.04079132009223174;-0.20153755329551962
0.04;0.025;0.0008;0.0035;0.0006;0.0002;0.0007;3.5000000000000004e-05;0.0014;2.52;-0.04295518626810142;-0.20244853497197532
0.04;0.025;0.0008;0.0035;0.0006;0.0002;0.0007;3.5000000000000004e-05;0.0014;2.53;-0.045155810875202755;-0.20337494131152242
0.04;0.025;0.0008;0.0035;0.0006;0.0002;0.0007;3.5000000000000004e-05;0.0014;2.54;-0.04739482786911384;-0.20431644952823402
0.04;0.025;0.0008;0.0035;0.0006;0.0002;0.0007;3.5000000000000004e-05;0.0014;2.55;-0.04967389164945107;-0.20527269049235752
0.04;0.025;0.0008;0.0035;0.0006;0.0002;0.0007;3.5000000000000004e-05;0.0014;2.56;-0.051994676798344845;-0.20624324794211976
0.04;0.025;0.0008;0.0035;0.0006;0.0002;0.0007;3.5000000000000004e-05;0.0014;2.57;-0.05435887784888227;-0.20722765766769366
0.04;0.025;0.0008;0.0035;0.0006;0.0002;0.0007;3.5000000000000004e-05;0.0014;2.58;-0.05676820908437809;-0.20822540666283323
0.04;0.025;0.0008;0.0035;0.0006;0.0002;0.0007;3.5000000000000004e-05;0.0014;2.59;-0.05922440436916813;-0.20923593223940734
0.04;0.025;0.0008;0.0035;0.0006;0.0002;0.0007;3.5000000000000004e-05;0.0014;2.6;-0.06172921701145;-0.21025862109975144
0.04;0.025;0.0008;0.0035;0.0006;0.0002;0.0007;3.5000000000000004e-05;0.0014;2.61;-0.06428441965849148;-0.21129280836145986
